 Init: read login configuration file: \meta.cfg
 ******  HSPICE    -- U-2003.09  (20030718) 08:43:22  10/16/2003  pcnt         
  Copyright (C) 2003 Synopsys, Inc. All Rights Reserved.                       
  Unpublished-rights reserved under US copyright laws.
  This program is protected by law and is subject to the 
  terms and conditions of the license agreement found in:
    C:\HSPICE\2003.09\\license.txt
  Use of this program is your acceptance to be bound by this 
  license agreement. HSPICE is the trademark of Synopsys, Inc.
  Input File: io33v.sp                                                          
  lic:  
  lic: FLEXlm: v6.1g 
  lic: USER:   amuranyi             HOSTNAME: amuranyi-desk 
  lic: HOSTID: 0090273e6a83         PID:      604 
  lic: Using FLEXlm license file: 
  lic: 7182@132.233.250.124 
  lic: Server node is down or not responding  See the system adminstrator about s
  lic: Using FLEXlm license file: 
  lic: 7182@132.233.250.124 
  lic: Unable to checkout hspicewin 
  lic:   
  lic:  
  lic: FLEXlm: v6.1g 
  lic: USER:   amuranyi             HOSTNAME: amuranyi-desk 
  lic: HOSTID: 0090273e6a83         PID:      604 
  lic: Using FLEXlm license file: 
  lic: 7185@fhlscs2.fm.intel.com 
  lic: Checkout hspice;  Encryption code: 6CAF3201D54D3767FC00 
  lic: License/Maintenance for hspice will expire on 23-jan-2004/2003.09 
  lic: 3(in_use)/5 FLOATING license(s) on SERVER 
  lic:   
 Init: read login configuration file: \meta.cfg
 .subckt buffer  1      2      3      4      5      6      7
 *               d_in   pad    puref  pclref pdref  gclref /en
 x0 1 2 3 4 5 6 7 io_buf           $ <<<------ change buffer name here
 .ends
 ********************************************************************************
 .alter                            $ minimum case
  **reading include file=io_buf.inc
 ******  HSPICE    -- U-2003.09  (20030718) 08:43:22  10/16/2003  pcnt         
 ******  
 ********************* v-t curve simulations *********************             
  ******  circuit name directory                                               
 ******  
 circuit number to circuit name directory
 number  circuitname                   definition        multiplier
     0 main circuit
     5 xdrv_pd_on.x0.                  io_buf             1.00 
     6 xdrv_pd_off.x0.                 io_buf             1.00 
     7 xdrv_pu_on.x0.                  io_buf             1.00 
     8 xdrv_pu_off.x0.                 io_buf             1.00 
     9 xdrv_pd_on.x0.x1.               inverter           1.00 
    10 xdrv_pd_on.x0.x2.               nand2              1.00 
    11 xdrv_pd_on.x0.x3.               nor2               1.00 
    12 xdrv_pd_on.x0.x4.               inverter           1.00 
    13 xdrv_pd_on.x0.x5.               inverter           1.00 
    14 xdrv_pd_on.x0.x6.               nand2              1.00 
    15 xdrv_pd_on.x0.x7.               nor2               1.00 
    16 xdrv_pd_on.x0.x8.               inverter           1.00 
    17 xdrv_pd_off.x0.x1.              inverter           1.00 
    18 xdrv_pd_off.x0.x2.              nand2              1.00 
    19 xdrv_pd_off.x0.x3.              nor2               1.00 
    20 xdrv_pd_off.x0.x4.              inverter           1.00 
    21 xdrv_pd_off.x0.x5.              inverter           1.00 
    22 xdrv_pd_off.x0.x6.              nand2              1.00 
    23 xdrv_pd_off.x0.x7.              nor2               1.00 
    24 xdrv_pd_off.x0.x8.              inverter           1.00 
    25 xdrv_pu_on.x0.x1.               inverter           1.00 
    26 xdrv_pu_on.x0.x2.               nand2              1.00 
    27 xdrv_pu_on.x0.x3.               nor2               1.00 
    28 xdrv_pu_on.x0.x4.               inverter           1.00 
    29 xdrv_pu_on.x0.x5.               inverter           1.00 
    30 xdrv_pu_on.x0.x6.               nand2              1.00 
    31 xdrv_pu_on.x0.x7.               nor2               1.00 
    32 xdrv_pu_on.x0.x8.               inverter           1.00 
    33 xdrv_pu_off.x0.x1.              inverter           1.00 
    34 xdrv_pu_off.x0.x2.              nand2              1.00 
    35 xdrv_pu_off.x0.x3.              nor2               1.00 
    36 xdrv_pu_off.x0.x4.              inverter           1.00 
    37 xdrv_pu_off.x0.x5.              inverter           1.00 
    38 xdrv_pu_off.x0.x6.              nand2              1.00 
    39 xdrv_pu_off.x0.x7.              nor2               1.00 
    40 xdrv_pu_off.x0.x8.              inverter           1.00 
 ******  HSPICE    -- U-2003.09  (20030718) 08:43:22  10/16/2003  pcnt         
 ******  
 ********************* v-t curve simulations *********************             
  ******  operating point information      tnom=  25.000 temp=  50.000         
 ******  
 ***** operating point status is voltage   simulation time is     0.         
     node    =voltage           node    =voltage           node    =voltage           node    =voltage

 + 0:gclref  =   0.           0:out_pd_o=   2.12301430   0:out_pd_o=   3.30000000   0:out_pu_o=   1.11819568 
 + 0:out_pu_o= 1.8428272e-09  0:pclref  =   3.30000000   0:pdref   =   0.           0:pls_f   =   3.30000000 
 + 0:pls_r   =   0.           0:puref   =   3.30000000   0:v_pd_off=   3.30000000   0:v_pd_on =   3.30000000 
 + 0:v_pu_off=   0.           0:v_pu_on =   0.           0:voff    =   3.30000000   0:von     =   0.         
 + 5:en_b    =   3.29999998   5:gate_n  = 1.2796108e-09  5:gate_p  = 4.4956699e-08  5:pre_n1  = 8.5928380e-09
 + 5:pre_n2  =   3.29999998   5:pre_p1  = 2.2478349e-08  5:pre_p2  =   3.29999998   5:rcv_in  =   3.30000000 
 + 5:rcv_out = 5.6195873e-09  6:en_b    =   3.29999998   6:gate_n  =   3.29999987   6:gate_p  =   3.30000000 
 + 6:pre_n1  =   3.29999993   6:pre_n2  = 5.6195874e-09  6:pre_p1  =   3.29999998   6:pre_p2  = 5.6195874e-09
 + 6:rcv_in  =   2.12301430   6:rcv_out = 4.4356619e-02  7:en_b    =   3.29999998   7:gate_n  =   3.29999987 
 + 7:gate_p  =   3.30000000   7:pre_n1  =   3.29999993   7:pre_n2  = 5.6195874e-09  7:pre_p1  =   3.29999998 
 + 7:pre_p2  = 5.6195874e-09  7:rcv_in  = 1.8428272e-09  7:rcv_out =   3.29999998   8:en_b    =   3.29999998 
 + 8:gate_n  = 1.2796108e-09  8:gate_p  = 4.4956699e-08  8:pre_n1  = 8.5928380e-09  8:pre_n2  =   3.29999998 
 + 8:pre_p1  = 2.2478349e-08  8:pre_p2  =   3.29999998   8:rcv_in  =   1.11819568   8:rcv_out =   3.18692595 
 +10:n_n     = 1.1239175e-08 11:p_p     =   1.30995679  14:n_n     = 2.2478349e-08 15:p_p     =   2.60316620 
 +18:n_n     =   1.65683128  19:p_p     =   3.29999997  22:n_n     =   0.69682886  23:p_p     =   3.29999993 
 +26:n_n     =   1.65683128  27:p_p     =   3.29999997  30:n_n     =   0.69682886  31:p_p     =   3.29999993 
 +34:n_n     = 1.1239175e-08 35:p_p     =   1.30995679  38:n_n     = 2.2478349e-08 39:p_p     =   2.60316620 

 ******  
 ********************* v-t curve simulations *********************             
  ******  transient analysis               tnom=  25.000 temp=  50.000         
 ******  
   vpower=  3.3000E+00
   vfixture_pd_on=  3.3000E+00
   vfixture_pd_off=  3.3000E+00
   vfixture_pu_on=  0.0000E+00
   vfixture_pu_off=  0.0000E+00
   rfixture_pd_on=  5.0000E+01
   rfixture_pd_off=  5.0000E+01
   rfixture_pu_on=  5.0000E+01
   rfixture_pu_off=  5.0000E+01
   cfixture_pd_on=  0.0000E+00
   cfixture_pd_off=  0.0000E+00
   cfixture_pu_on=  0.0000E+00
   cfixture_pu_off=  0.0000E+00
x

          time    pulldown_on   pulldown_off     pullup_on     pullup_off   
                                                                            
    0.              3.30000000     2.12301430     0.             1.11819568 
  2.50000000e-11    3.29993429     2.12311389  -2.2513749e-05    1.11822316 
  5.00000000e-11    3.30005014     2.12320846  -1.9009852e-04    1.11836017 
  7.50000000e-11    3.30011318     2.12351459  -2.4247686e-04    1.11834995 
  1.00000000e-10    3.30014254     2.12394532  -2.3484504e-04    1.11825291 
  1.25000000e-10    3.30015299     2.12442593  -2.0559799e-04    1.11811012 
  1.50000000e-10    3.30015292     2.12490561  -1.6355208e-04    1.11794523 
  1.75000000e-10    3.30014710     2.12533537  -1.1386633e-04    1.11777203 
  2.00000000e-10    3.30013832     2.12567517  -5.6374671e-05    1.11759869 
  2.25000000e-10    3.30012779     2.12588547   4.3281708e-06    1.11742982 
  2.50000000e-10    3.30011459     2.12593066   6.8692053e-05    1.11726778 
  2.75000000e-10    3.30010049     2.12578240   1.4510717e-04    1.11711761 
  3.00000000e-10    3.30008076     2.12539990   2.3717346e-04    1.11697836 
  3.25000000e-10    3.30005115     2.12472839   3.5988248e-04    1.11685561 
  3.50000000e-10    3.30001087     2.12365452   5.2801700e-04    1.11676125 
  3.75000000e-10    3.29996041     2.12206120   6.8506844e-04    1.11670871 
  4.00000000e-10    3.29990070     2.11993478   8.2524836e-04    1.11671112 
  4.25000000e-10    3.29983270     2.11729675   9.4577957e-04    1.11678062 
  4.50000000e-10    3.29975743     2.11419309   1.0477238e-03    1.11692833 
  4.75000000e-10    3.29967579     2.11068286   1.1330152e-03    1.11716410 
  5.00000000e-10    3.29958829     2.10683073   1.2039355e-03    1.11749638 
  5.25000000e-10    3.29949517     2.10270238   1.2633952e-03    1.11793264 
  5.50000000e-10    3.29939563     2.09836353   1.3155763e-03    1.11847941 
  5.75000000e-10    3.29928631     2.09387403   1.3638570e-03    1.11914808 
  6.00000000e-10    3.29916804     2.08930294   1.3861855e-03    1.11994189 
  6.25000000e-10    3.29903912     2.08473104   1.3645557e-03    1.12087404 
  6.50000000e-10    3.29889118     2.08025739   1.2759757e-03    1.12195268 
  6.75000000e-10    3.29873052     2.07610953   1.0506529e-03    1.12320665 
  7.00000000e-10    3.29857878     2.07269878   6.7915905e-04    1.12466138 
  7.25000000e-10    3.29844347     2.07051657   1.6991272e-04    1.12631205 
  7.50000000e-10    3.29835078     2.07008079  -4.6394189e-04    1.12815742 
  7.75000000e-10    3.29829759     2.07190631  -1.2089586e-03    1.13013920 
  8.00000000e-10    3.29826423     2.07648992  -2.0532280e-03    1.13221085 
  8.25000000e-10    3.29830277     2.08430581  -2.9871892e-03    1.13437439 
  8.50000000e-10    3.29844478     2.09580908  -4.0029909e-03    1.13656121 
  8.75000000e-10    3.29870912     2.11144510  -5.0946965e-03    1.13865947 
  9.00000000e-10    3.29910745     2.13166892  -6.2605075e-03    1.14053002 
  9.25000000e-10    3.29964672     2.15699043  -7.5033720e-03    1.14201527 
  9.50000000e-10    3.30033265     2.18808692  -8.8142300e-03    1.14294638 
  9.75000000e-10    3.30116803     2.22554039  -1.0210254e-02    1.14314247 
  1.00000000e-09    3.30214863     2.26896633  -1.1714872e-02    1.14241315 
  1.02500000e-09    3.30327020     2.31807973  -1.3367718e-02    1.14056985 
  1.05000000e-09    3.30453009     2.37282940  -1.5218873e-02    1.13742643 
  1.07500000e-09    3.30592820     2.43300250  -1.7187770e-02    1.13279756 
  1.10000000e-09    3.30747056     2.49803093  -1.9238017e-02    1.12649706 
  1.12500000e-09    3.30916977     2.56714966  -2.1401569e-02    1.11832760 
  1.15000000e-09    3.31104087     2.63941676  -2.3711889e-02    1.10807087 
  1.17500000e-09    3.31311712     2.71368133  -2.6219476e-02    1.09548907 
  1.20000000e-09    3.31538860     2.78856645  -2.8990958e-02    1.08024229 
  1.22500000e-09    3.31769270     2.86240955  -3.2101489e-02    1.06193254 
  1.25000000e-09    3.31997603     2.93318070  -3.5647241e-02    1.04034972 
  1.27500000e-09    3.32222395     2.99834364  -3.9394210e-02    1.01528398 
  1.30000000e-09    3.32440242     3.05525404  -4.3485319e-02    0.98683084 
  1.32500000e-09    3.32648616     3.10159873  -4.8387535e-02    0.95581718 
  1.35000000e-09    3.32846053     3.13766995  -5.1180730e-02    0.92262858 
  1.37500000e-09    3.33031613     3.16656973  -4.4172697e-02    0.88752501 
  1.40000000e-09    3.33204940     3.19016540  -3.6941059e-02    0.85079613 
  1.42500000e-09    3.33366178     3.20953668  -3.0716747e-02    0.81274299 
  1.45000000e-09    3.33515876     3.22547678  -2.5345065e-02    0.77366551 
  1.47500000e-09    3.33653125     3.23857144  -2.0789124e-02    0.73384396 
  1.50000000e-09    3.33775755     3.24929439  -1.7028553e-02    0.69359143 
  1.52500000e-09    3.33886215     3.25804074  -1.4009511e-02    0.65321040 
  1.55000000e-09    3.33987234     3.26515260  -1.1648174e-02    0.61294753 
  1.57500000e-09    3.34080811     3.27091971  -9.8478438e-03    0.57303720 
  1.60000000e-09    3.34168872     3.27558490  -8.5203182e-03    0.53368902 
  1.62500000e-09    3.34253429     3.27935127  -7.6425394e-03    0.49508387 
  1.65000000e-09    3.34334762     3.28238856  -7.1554372e-03    0.45735846 
  1.67500000e-09    3.34412098     3.28483682  -6.9100028e-03    0.42065986 
  1.70000000e-09    3.34484282     3.28678323  -6.8049097e-03    0.38514071 
  1.72500000e-09    3.34550550     3.28825420  -6.8051771e-03    0.35094532 
  1.75000000e-09    3.34610175     3.28927246  -6.8846111e-03    0.31820150 
  1.77500000e-09    3.34661974     3.28997892  -7.0192167e-03    0.28701434 
  1.80000000e-09    3.34708921     3.29048199  -7.2089650e-03    0.25746780 
  1.82500000e-09    3.34759992     3.29082778  -7.4360616e-03    0.22974366 
  1.85000000e-09    3.34814585     3.29104821  -7.6786644e-03    0.20405681 
  1.87500000e-09    3.34864698     3.29116846  -7.9309905e-03    0.18036351 
  1.90000000e-09    3.34908829     3.29121017  -8.1880313e-03    0.15854614 
  1.92500000e-09    3.34947469     3.29119073  -8.4456654e-03    0.13859675 
  1.95000000e-09    3.34981581     3.29112403  -8.7005707e-03    0.12050847 
  1.97500000e-09    3.35012742     3.29102244  -8.9500752e-03    0.10424972 
  2.00000000e-09    3.35043961     3.29089018  -9.1919971e-03  8.9805520e-02
  2.02500000e-09    3.35082584     3.29073443  -9.4244875e-03  7.7083612e-02
  2.05000000e-09    3.35117274     3.29056477  -9.6458731e-03  6.6000439e-02
  2.07500000e-09    3.35033180     3.29038556  -9.8544822e-03  5.6480616e-02
  2.10000000e-09    3.34731569     3.29020033  -1.0048425e-02  4.8425069e-02
  2.12500000e-09    3.34367442     3.29001196  -1.0225270e-02  4.1698929e-02
  2.15000000e-09    3.34035374     3.28982270  -1.0381502e-02  3.6112287e-02
  2.17500000e-09    3.33736600     3.28963434  -1.0511490e-02  3.2095922e-02
  2.20000000e-09    3.33466143     3.28944827  -1.0605271e-02  2.9266151e-02
  2.22500000e-09    3.33219651     3.28926555  -1.0643098e-02  2.6956934e-02
  2.25000000e-09    3.32993798     3.28908697  -1.0579396e-02  2.4948909e-02
  2.27500000e-09    3.32786055     3.28891310  -1.0283129e-02  2.3158092e-02
  2.30000000e-09    3.32594456     3.28874434  -9.9469620e-03  2.1540716e-02
  2.32500000e-09    3.32417430     3.28858094  -9.8127193e-03  2.0069062e-02
  2.35000000e-09    3.32253680     3.28842300  -9.6618518e-03  1.8723528e-02
  2.37500000e-09    3.32102105     3.28827056  -9.3745602e-03  1.7489375e-02
  2.40000000e-09    3.31961744     3.28812352  -8.8891743e-03  1.6355078e-02
  2.42500000e-09    3.31831734     3.28798173  -8.1692518e-03  1.5311342e-02
  2.45000000e-09    3.31711285     3.28784492  -7.1915905e-03  1.4350476e-02
  2.47500000e-09    3.31599646     3.28771273  -5.9410176e-03  1.3465954e-02
  2.50000000e-09    3.31496075     3.28758463  -4.4077214e-03  1.2652132e-02
  2.52500000e-09    3.31399795     3.28745988  -2.5856952e-03  1.1904063e-02
  2.55000000e-09    3.31309884     3.28733731  -4.7173271e-04  1.1217395e-02
  2.57500000e-09    3.31225012     3.28721492   1.9354223e-03  1.0588368e-02
  2.60000000e-09    3.31142498     3.28708873   4.6351574e-03  1.0013929e-02
  2.62500000e-09    3.31060603     3.28694861   7.6256202e-03  9.4921218e-03
  2.65000000e-09    3.30985250     3.28673545   1.0904162e-02  9.0232360e-03
  2.67500000e-09    3.30904950     3.28612401   1.4467415e-02  8.6140162e-03
  2.70000000e-09    3.30808165     3.28524898   1.8311463e-02  8.3030629e-03
  2.72500000e-09    3.30686925     3.28439629   2.2431983e-02  8.3605083e-03
  2.75000000e-09    3.30535510     3.28364529   2.6824346e-02  8.7233517e-03
  2.77500000e-09    3.30349775     3.28302977   3.1483705e-02  9.0747956e-03
  2.80000000e-09    3.30126737     3.28254882   3.6405061e-02  9.3243946e-03
  2.82500000e-09    3.29864314     3.28218207   4.1583315e-02  9.4255667e-03
  2.85000000e-09    3.29561332     3.28191130   4.7013308e-02  9.4063454e-03
  2.87500000e-09    3.29217176     3.28172068   5.2689852e-02  9.3081650e-03
  2.90000000e-09    3.28831596     3.28159665   5.8607758e-02  9.1589951e-03
  2.92500000e-09    3.28404684     3.28152762   6.4762325e-02  8.9781503e-03
  2.95000000e-09    3.27936795     3.28150378   7.1148346e-02  8.7791239e-03
  2.97500000e-09    3.27428486     3.28151682   7.7759449e-02  8.5713652e-03
  3.00000000e-09    3.26880466     3.28155976   8.4589487e-02  8.3614465e-03
  3.02500000e-09    3.26293557     3.28162729   9.1632348e-02  8.1538641e-03
  3.05000000e-09    3.25668663     3.28171534   9.8881291e-02  7.9516080e-03
  3.07500000e-09    3.25006745     3.28181961     0.10634215   7.7565760e-03
  3.10000000e-09    3.24308842     3.28193643     0.11400705   7.5698803e-03
  3.12500000e-09    3.23576116     3.28206281     0.12186344   7.3920741e-03
  3.15000000e-09    3.22809833     3.28219633     0.12990751   7.2231527e-03
  3.17500000e-09    3.22011345     3.28233498     0.13813523   7.0623369e-03
  3.20000000e-09    3.21182091     3.28247716     0.14654254   6.9088338e-03
  3.22500000e-09    3.20323672     3.28262157     0.15512539   6.7620738e-03
  3.25000000e-09    3.19435981     3.28276714     0.16387978   6.6215887e-03
  3.27500000e-09    3.18520680     3.28291304     0.17280181   6.4869574e-03
  3.30000000e-09    3.17580270     3.28305860     0.18188766   6.3577834e-03
  3.32500000e-09    3.16616077     3.28320328     0.19113359   6.2336897e-03
  3.35000000e-09    3.15629452     3.28334666     0.20053600   6.1143170e-03
  3.37500000e-09    3.14621747     3.28348843     0.21009137   5.9993256e-03
  3.40000000e-09    3.13594311     3.28362832     0.21979702   5.8883960e-03
  3.42500000e-09    3.12548476     3.28376616     0.22964922   5.7812303e-03
  3.45000000e-09    3.11485559     3.28390181     0.23964190   5.6775523e-03
  3.47500000e-09    3.10406852     3.28403517     0.24976838   5.5771070e-03
  3.50000000e-09    3.09313628     3.28416616     0.26002160   5.4796600e-03
  3.52500000e-09    3.08207129     3.28429476     0.27039417   5.3849968e-03
  3.55000000e-09    3.07088572     3.28442184     0.28087844   5.2929214e-03
  3.57500000e-09    3.05959145     3.28454952     0.29146660   5.2032553e-03
  3.60000000e-09    3.04820006     3.28467855     0.30215069   5.1158358e-03
  3.62500000e-09    3.03672281     3.28480930     0.31292267   5.0305152e-03
  3.65000000e-09    3.02517067     3.28494205     0.32377444   4.9471595e-03
  3.67500000e-09    3.01355428     3.28507695     0.33469785   4.8656468e-03
  3.70000000e-09    3.00188395     3.28521410     0.34568476   4.7858667e-03
  3.72500000e-09    2.99016967     3.28535353     0.35672706   4.7077192e-03
  3.75000000e-09    2.97842110     3.28549526     0.36781666   4.6311134e-03
  3.77500000e-09    2.96664759     3.28563924     0.37894553   4.5559670e-03
  3.80000000e-09    2.95485814     3.28578542     0.39010572   4.4822054e-03
  3.82500000e-09    2.94306143     3.28593372     0.40128936   4.4097608e-03
  3.85000000e-09    2.93126582     3.28608407     0.41248868   4.3385718e-03
  3.87500000e-09    2.91947934     3.28623637     0.42369603   4.2685827e-03
  3.90000000e-09    2.90770972     3.28639052     0.43490391   4.1997429e-03
  3.92500000e-09    2.89596433     3.28654642     0.44610494   4.1320064e-03
  3.95000000e-09    2.88425028     3.28670397     0.45729189   4.0653315e-03
  3.97500000e-09    2.87257433     3.28686305     0.46845770   3.9996801e-03
  4.00000000e-09    2.86094297     3.28702357     0.47959549   3.9350178e-03
